
T1B064 000:056 SEGGER J-Link V6.10i Log File (0000ms, 0032ms total)
T1B064 000:056 DLL Compiled: Oct 25 2016 19:31:51 (0000ms, 0032ms total)
T1B064 000:056 Logging started @ 2018-04-03 03:20 (0000ms, 0032ms total)
T1B064 000:056 JLINK_SetWarnOutHandler(...) (0000ms, 0032ms total)
T1B064 000:056 JLINK_OpenEx(...)
Firmware: J-Link EDU Mini V1 compiled Feb 16 2018 13:05:41
Hardware: V1.00
S/N: 801000551
Feature(s): GDBWEBSRV Webserver running on local port 19080 (0020ms, 0052ms total)
T1B064 000:056   returns O.K. (0020ms, 0052ms total)
T1B064 000:076 JLINK_SetErrorOutHandler(...) (0000ms, 0052ms total)
T1B064 000:076 JLINK_ExecCommand("ProjectFile = "C:\Users\Alex Wong\Documents\Robomaster\winter_camp\winter_camp\Project\JLinkSettings.ini"", ...). Device "STM32F427II" selected.  returns 0x00 (0100ms, 0152ms total)
T1B064 000:176 JLINK_ExecCommand("Device = STM32F427IIHx", ...). Device "STM32F427II" selected.  returns 0x00 (0002ms, 0154ms total)
T1B064 000:178 JLINK_ExecCommand("DisableConnectionTimeout", ...).   returns 0x01 (0000ms, 0154ms total)
T1B064 000:178 JLINK_GetHardwareVersion()  returns 0x2710 (0000ms, 0154ms total)
T1B064 000:178 JLINK_GetDLLVersion()  returns 61009 (0000ms, 0154ms total)
T1B064 000:178 JLINK_GetFirmwareString(...) (0000ms, 0154ms total)
T1B064 000:178 JLINK_GetDLLVersion()  returns 61009 (0000ms, 0154ms total)
T1B064 000:178 JLINK_GetCompileDateTime() (0000ms, 0154ms total)
T1B064 000:178 JLINK_GetFirmwareString(...) (0000ms, 0154ms total)
T1B064 000:178 JLINK_GetHardwareVersion()  returns 0x2710 (0000ms, 0154ms total)
T1B064 000:178 JLINK_TIF_Select(JLINKARM_TIF_SWD)  returns 0x00 (0000ms, 0154ms total)
T1B064 000:178 JLINK_SetSpeed(5000) (0000ms, 0154ms total)
T1B064 000:178 JLINK_GetId() >0x108 TIF>Found SWD-DP with ID 0x2BA01477 >0x0D TIF> >0x28 TIF> >0x0D TIF> >0x28 TIF> >0x0D TIF> >0x28 TIF> >0x0D TIF> >0x28 TIF> >0x0D TIF> >0x21 TIF> >0x0D TIF> >0x28 TIF> >0x0D TIF> >0x28 TIF> >0x0D TIF> >0x28 TIF> >0x0D TIF> >0x21 TIF> >0x0D TIF> >0x21 TIF> >0x0D TIF> >0x28 TIF> >0x0D TIF> >0x21 TIF> >0x0D TIF> >0x21 TIF> >0x0D TIF> >0x28 TIF> >0x0D TIF> >0x21 TIF> >0x0D TIF> >0x21 TIF> >0x0D TIF> >0x28 TIF> >0x0D TIF> >0x21 TIF> >0x0D TIF> >0x21 TIF> >0x0D TIF>
 >0x28 TIF> >0x0D TIF> >0x21 TIF> >0x0D TIF> >0x21 TIF> >0x0D TIF> >0x28 TIF> >0x0D TIF> >0x21 TIF> >0x0D TIF> >0x21 TIF> >0x0D TIF> >0x28 TIF> >0x0D TIF> >0x21 TIF> >0x0D TIF> >0x21 TIF> >0x108 TIF>Found SWD-DP with ID 0x2BA01477 >0x0D TIF> >0x28 TIF> >0x0D TIF> >0x28 TIF> >0x0D TIF> >0x28 TIF> >0x0D TIF> >0x28 TIF> >0x0D TIF> >0x21 TIF> >0x0D TIF> >0x28 TIF> >0x0D TIF> >0x28 TIF> >0x0D TIF> >0x21 TIF> >0x0D TIF> >0x21 TIF> >0x0D TIF> >0x21 TIF>AP-IDR: 0x24770011, Type: AHB-AP >0x0D TIF> >0x28 TIF>
 >0x0D TIF> >0x28 TIF> >0x0D TIF> >0x28 TIF> >0x0D TIF> >0x21 TIF> >0x0D TIF> >0x21 TIF> >0x0D TIF> >0x28 TIF> >0x0D TIF> >0x21 TIF> >0x0D TIF> >0x21 TIF>Found Cortex-M4 r0p1, Little endian. -- CPU_ReadMem(4 bytes @ 0xE000EDF0) -- CPU_WriteMem(4 bytes @ 0xE000EDF0) -- CPU_ReadMem(4 bytes @ 0xE0002000)FPUnit: 6 code (BP) slots and 2 literal slots -- CPU_ReadMem(4 bytes @ 0xE000EDFC) -- CPU_WriteMem(4 bytes @ 0xE000EDFC) -- CPU_ReadMem(4 bytes @ 0xE0001000) -- CPU_WriteMem(4 bytes @ 0xE0001000)
 -- CPU_ReadMem(4 bytes @ 0xE000ED88) -- CPU_WriteMem(4 bytes @ 0xE000ED88) -- CPU_ReadMem(4 bytes @ 0xE000ED88) -- CPU_WriteMem(4 bytes @ 0xE000ED88)CoreSight components:ROMTbl 0 @ E00FF000 -- CPU_ReadMem(16 bytes @ 0xE00FF000) -- CPU_ReadMem(16 bytes @ 0xE000EFF0) -- CPU_ReadMem(16 bytes @ 0xE000EFE0)ROMTbl 0 [0]: FFF0F000, CID: B105E00D, PID: 000BB00C SCS -- CPU_ReadMem(16 bytes @ 0xE0001FF0) -- CPU_ReadMem(16 bytes @ 0xE0001FE0)ROMTbl 0 [1]: FFF02000, CID: B105E00D, PID: 003BB002 DWT
 -- CPU_ReadMem(16 bytes @ 0xE0002FF0) -- CPU_ReadMem(16 bytes @ 0xE0002FE0)ROMTbl 0 [2]: FFF03000, CID: B105E00D, PID: 002BB003 FPB -- CPU_ReadMem(16 bytes @ 0xE0000FF0) -- CPU_ReadMem(16 bytes @ 0xE0000FE0)ROMTbl 0 [3]: FFF01000, CID: B105E00D, PID: 003BB001 ITM -- CPU_ReadMem(16 bytes @ 0xE00FF010) -- CPU_ReadMem(16 bytes @ 0xE0040FF0) -- CPU_ReadMem(16 bytes @ 0xE0040FE0)ROMTbl 0 [4]: FFF41000, CID: B105900D, PID: 000BB9A1 TPIU -- CPU_ReadMem(16 bytes @ 0xE0041FF0)
 -- CPU_ReadMem(16 bytes @ 0xE0041FE0)ROMTbl 0 [5]: FFF42000, CID: B105900D, PID: 000BB925 ETM >0x0D TIF> >0x21 TIF>  returns 0x2BA01477 (0028ms, 0182ms total)
T1B064 000:206 JLINK_GetDLLVersion()  returns 61009 (0000ms, 0182ms total)
T1B064 000:206 JLINK_CORE_GetFound()  returns 0xE0000FF (0000ms, 0182ms total)
T1B064 000:206 JLINK_GetDebugInfo(0x100) -- Value=0xE00FF000  returns 0x00 (0000ms, 0182ms total)
T1B064 000:206 JLINK_GetDebugInfo(0x100) -- Value=0xE00FF000  returns 0x00 (0000ms, 0182ms total)
T1B064 000:206 JLINK_GetDebugInfo(0x101) -- Value=0xE0041000  returns 0x00 (0000ms, 0182ms total)
T1B064 000:206 JLINK_GetDebugInfo(0x102) -- Value=0x00000000  returns 0x00 (0000ms, 0182ms total)
T1B064 000:206 JLINK_GetDebugInfo(0x103) -- Value=0xE0040000  returns 0x00 (0000ms, 0182ms total)
T1B064 000:206 JLINK_GetDebugInfo(0x104) -- Value=0xE0000000  returns 0x00 (0000ms, 0182ms total)
T1B064 000:206 JLINK_GetDebugInfo(0x105) -- Value=0xE0001000  returns 0x00 (0000ms, 0182ms total)
T1B064 000:206 JLINK_GetDebugInfo(0x106) -- Value=0xE0002000  returns 0x00 (0000ms, 0182ms total)
T1B064 000:206 JLINK_GetDebugInfo(0x107) -- Value=0xE000E000  returns 0x00 (0000ms, 0182ms total)
T1B064 000:206 JLINK_GetDebugInfo(0x10C) -- Value=0xE000EDF0  returns 0x00 (0000ms, 0182ms total)
T1B064 000:206 JLINK_ReadMemU32(0xE000EF40, 0x0001 Items, ...) -- CPU is running -- CPU_ReadMem(4 bytes @ 0xE000EF40) - Data: 21 00 11 10  returns 0x01 (0000ms, 0182ms total)
T1B064 000:206 JLINK_ReadMemU32(0xE000EF44, 0x0001 Items, ...) -- CPU is running -- CPU_ReadMem(4 bytes @ 0xE000EF44) - Data: 11 00 00 11  returns 0x01 (0001ms, 0183ms total)
T1B064 000:207 JLINK_ReadMemU32(0xE000ED00, 0x0001 Items, ...) -- CPU is running -- CPU_ReadMem(4 bytes @ 0xE000ED00) - Data: 41 C2 0F 41  returns 0x01 (0000ms, 0183ms total)
T1B064 000:207 JLINK_SetResetType(JLINKARM_RESET_TYPE_NORMAL)  returns JLINKARM_RESET_TYPE_NORMAL (0000ms, 0183ms total)
T1B064 000:207 JLINK_Reset() -- CPU is running -- CPU_WriteMem(4 bytes @ 0xE000EDF0) -- CPU is running -- CPU_WriteMem(4 bytes @ 0xE000EDFC) >0x35 TIF> -- CPU is running -- CPU_WriteMem(4 bytes @ 0xE000ED0C) -- CPU is running -- CPU_ReadMem(4 bytes @ 0xE000EDF0) -- CPU is running -- CPU_ReadMem(4 bytes @ 0xE000EDF0) -- CPU is running -- CPU_WriteMem(4 bytes @ 0xE000EDF0) -- CPU is running -- CPU_WriteMem(4 bytes @ 0xE000EDFC) -- CPU is running -- CPU_ReadMem(4 bytes @ 0xE000EDF0)
 -- CPU_WriteMem(4 bytes @ 0xE0002000) -- CPU_ReadMem(4 bytes @ 0xE000EDFC) -- CPU_ReadMem(4 bytes @ 0xE0001000) (0018ms, 0201ms total)
T1B064 000:225 JLINK_ReadReg(R15 (PC))  returns 0x08000558 (0000ms, 0201ms total)
T1B064 000:225 JLINK_ReadReg(XPSR)  returns 0x01000000 (0000ms, 0201ms total)
T1B064 000:225 JLINK_Halt()  returns 0x00 (0000ms, 0201ms total)
T1B064 000:225 JLINK_IsHalted()  returns TRUE (0000ms, 0201ms total)
T1B064 000:225 JLINK_ReadMemU32(0xE000EDF0, 0x0001 Items, ...) -- CPU_ReadMem(4 bytes @ 0xE000EDF0) - Data: 03 00 03 00  returns 0x01 (0000ms, 0201ms total)
T1B064 000:225 JLINK_WriteU32(0xE000EDF0, 0xA05F0003) -- CPU_WriteMem(4 bytes @ 0xE000EDF0)  returns 0x00 (0001ms, 0202ms total)
T1B064 000:226 JLINK_WriteU32(0xE000EDFC, 0x01000000) -- CPU_WriteMem(4 bytes @ 0xE000EDFC)  returns 0x00 (0000ms, 0202ms total)
T1B064 000:226 JLINK_GetHWStatus(...)  returns 0x00 (0000ms, 0202ms total)
T1B064 000:226 JLINK_GetNumBPUnits(Type = 0xFFFFFF00)  returns 0x06 (0000ms, 0202ms total)
T1B064 000:226 JLINK_GetNumBPUnits(Type = 0xF0)  returns 0x2000 (0000ms, 0202ms total)
T1B064 000:226 JLINK_GetNumWPUnits()  returns 0x04 (0000ms, 0202ms total)
T1B064 000:226 JLINK_GetSpeed()  returns 0xFA0 (0000ms, 0202ms total)
T1B064 000:226 JLINK_ReadMemU32(0xE000E004, 0x0001 Items, ...) -- CPU_ReadMem(4 bytes @ 0xE000E004) - Data: 02 00 00 00  returns 0x01 (0001ms, 0203ms total)
T1B064 000:227 JLINK_ReadMemU32(0xE000E004, 0x0001 Items, ...) -- CPU_ReadMem(4 bytes @ 0xE000E004) - Data: 02 00 00 00  returns 0x01 (0000ms, 0203ms total)
T1B064 000:227 JLINK_WriteMem(0xE0001000, 0x001C Bytes, ...) - Data: 01 00 00 00 00 00 00 00 00 00 00 00 00 00 00 00 ... -- CPU_WriteMem(28 bytes @ 0xE0001000)  returns 0x1C (0001ms, 0204ms total)
T1B064 000:228 JLINK_ReadMem (0xE0001000, 0x001C Bytes, ...) -- CPU_ReadMem(28 bytes @ 0xE0001000) - Data: 01 00 00 40 00 00 00 00 00 00 00 00 00 00 00 00 ...  returns 0x00 (0001ms, 0205ms total)
T1B064 000:229 JLINK_ReadReg(R15 (PC))  returns 0x08000558 (0000ms, 0205ms total)
T1B064 000:229 JLINK_ReadReg(XPSR)  returns 0x01000000 (0000ms, 0205ms total)
T1B064 000:352 JLINK_SetResetType(JLINKARM_RESET_TYPE_NORMAL)  returns JLINKARM_RESET_TYPE_NORMAL (0000ms, 0205ms total)
T1B064 000:352 JLINK_Reset() -- CPU_WriteMem(4 bytes @ 0xE000EDF0) -- CPU_WriteMem(4 bytes @ 0xE000EDFC) >0x35 TIF> -- CPU_WriteMem(4 bytes @ 0xE000ED0C) -- CPU_ReadMem(4 bytes @ 0xE000EDF0) -- CPU_ReadMem(4 bytes @ 0xE000EDF0) -- CPU_WriteMem(4 bytes @ 0xE000EDF0) -- CPU_WriteMem(4 bytes @ 0xE000EDFC) -- CPU is running -- CPU_ReadMem(4 bytes @ 0xE000EDF0) -- CPU_WriteMem(4 bytes @ 0xE0002000) -- CPU_ReadMem(4 bytes @ 0xE000EDFC) -- CPU_ReadMem(4 bytes @ 0xE0001000) (0016ms, 0221ms total)
T1B064 000:368 JLINK_ReadReg(R15 (PC))  returns 0x08000558 (0000ms, 0221ms total)
T1B064 000:368 JLINK_ReadReg(XPSR)  returns 0x01000000 (0000ms, 0221ms total)
T1B064 000:370 JLINK_ReadMem (0x08000558, 0x003C Bytes, ...) -- CPU_ReadMem(128 bytes @ 0x08000540) -- Updating C cache (128 bytes @ 0x08000540) -- Read from C cache (60 bytes @ 0x08000558) - Data: 09 48 80 47 09 48 00 47 FE E7 FE E7 FE E7 FE E7 ...  returns 0x00 (0001ms, 0222ms total)
T1B064 000:375 JLINK_ReadMem (0x08000594, 0x003C Bytes, ...) -- CPU_ReadMem(64 bytes @ 0x080005C0) -- Updating C cache (64 bytes @ 0x080005C0) -- Read from C cache (60 bytes @ 0x08000594) - Data: B8 50 00 20 70 47 70 47 70 47 00 00 01 49 18 20 ...  returns 0x00 (0001ms, 0223ms total)
T1B064 000:443 JLINK_ReadMem (0x40021C00, 0x0014 Bytes, ...) -- CPU_ReadMem(20 bytes @ 0x40021C00) - Data: 00 00 00 00 00 00 00 00 00 00 00 00 00 00 00 00 ...  returns 0x00 (0000ms, 0223ms total)
T1B064 000:443 JLINK_ReadMem (0x40021C14, 0x0004 Bytes, ...) -- CPU_ReadMem(4 bytes @ 0x40021C14) - Data: 00 00 00 00  returns 0x00 (0001ms, 0224ms total)
T1B064 000:444 JLINK_ReadMem (0x40021C1C, 0x0008 Bytes, ...) -- CPU_ReadMem(8 bytes @ 0x40021C1C) - Data: 00 00 00 00 00 00 00 00  returns 0x00 (0000ms, 0224ms total)
T1B064 000:444 JLINK_ReadMem (0x40021C24, 0x0004 Bytes, ...) -- CPU_ReadMem(4 bytes @ 0x40021C24) - Data: 00 00 00 00  returns 0x00 (0000ms, 0224ms total)
T1B064 002:252 JLINK_ReadMem (0x200000B0, 0x0004 Bytes, ...) -- CPU_ReadMem(64 bytes @ 0x20000080) -- Updating C cache (64 bytes @ 0x20000080) -- Read from C cache (4 bytes @ 0x200000B0) - Data: 00 00 00 00  returns 0x00 (0001ms, 0225ms total)
T1B064 002:268 JLINK_ReadMem (0x200000B8, 0x0004 Bytes, ...) -- Read from C cache (4 bytes @ 0x200000B8) - Data: 00 00 00 00  returns 0x00 (0000ms, 0225ms total)
T1B064 002:297 JLINK_ReadMem (0x200000BC, 0x0004 Bytes, ...) -- Read from C cache (4 bytes @ 0x200000BC) - Data: 00 00 00 00  returns 0x00 (0000ms, 0225ms total)
T1B064 002:304 JLINK_ReadMem (0x200000B4, 0x0004 Bytes, ...) -- Read from C cache (4 bytes @ 0x200000B4) - Data: 00 00 00 00  returns 0x00 (0000ms, 0225ms total)
T39F28 002:364 JLINK_SetBPEx(Addr = 0x08008BBC, Type = 0xFFFFFFF2)  returns 0x00000001 (0000ms, 0225ms total)
T39F28 002:364 JLINK_Go() -- CPU_WriteMem(4 bytes @ 0xE0002000) -- CPU_ReadMem(4 bytes @ 0xE0001000) -- CPU_WriteMem(4 bytes @ 0xE0002008) -- CPU_WriteMem(4 bytes @ 0xE000200C) -- CPU_WriteMem(4 bytes @ 0xE0002010) -- CPU_WriteMem(4 bytes @ 0xE0002014) -- CPU_WriteMem(4 bytes @ 0xE0002018) -- CPU_WriteMem(4 bytes @ 0xE000201C) -- CPU_WriteMem(4 bytes @ 0xE0001004) (0003ms, 0228ms total)
T39F28 002:468 JLINK_IsHalted()  returns TRUE (0003ms, 0231ms total)
T39F28 002:471 JLINK_Halt()  returns 0x00 (0000ms, 0228ms total)
T39F28 002:471 JLINK_IsHalted()  returns TRUE (0000ms, 0228ms total)
T39F28 002:471 JLINK_IsHalted()  returns TRUE (0000ms, 0228ms total)
T39F28 002:471 JLINK_IsHalted()  returns TRUE (0000ms, 0228ms total)
T39F28 002:471 JLINK_ReadReg(R15 (PC))  returns 0x08008BBC (0000ms, 0228ms total)
T39F28 002:471 JLINK_ReadReg(XPSR)  returns 0x21000000 (0000ms, 0228ms total)
T39F28 002:471 JLINK_ClrBPEx(BPHandle = 0x00000001)  returns 0x00 (0000ms, 0228ms total)
T39F28 002:471 JLINK_ReadMemU32(0xE000ED30, 0x0001 Items, ...) -- CPU_ReadMem(4 bytes @ 0xE000ED30) - Data: 02 00 00 00  returns 0x01 (0000ms, 0228ms total)
T39F28 002:471 JLINK_ReadMemU32(0xE0001028, 0x0001 Items, ...) -- CPU_ReadMem(4 bytes @ 0xE0001028) - Data: 00 00 00 00  returns 0x01 (0001ms, 0229ms total)
T39F28 002:472 JLINK_ReadMemU32(0xE0001038, 0x0001 Items, ...) -- CPU_ReadMem(4 bytes @ 0xE0001038) - Data: 00 02 00 00  returns 0x01 (0000ms, 0229ms total)
T39F28 002:472 JLINK_ReadMemU32(0xE0001048, 0x0001 Items, ...) -- CPU_ReadMem(4 bytes @ 0xE0001048) - Data: 00 00 00 00  returns 0x01 (0000ms, 0229ms total)
T39F28 002:472 JLINK_ReadMemU32(0xE0001058, 0x0001 Items, ...) -- CPU_ReadMem(4 bytes @ 0xE0001058) - Data: 00 00 00 00  returns 0x01 (0001ms, 0230ms total)
T39F28 002:473 JLINK_ReadReg(R0)  returns 0x20004BB8 (0000ms, 0230ms total)
T39F28 002:473 JLINK_ReadReg(R1)  returns 0x200050B8 (0000ms, 0230ms total)
T39F28 002:473 JLINK_ReadReg(R2)  returns 0x200050B8 (0000ms, 0230ms total)
T39F28 002:473 JLINK_ReadReg(R3)  returns 0x200050B8 (0000ms, 0230ms total)
T39F28 002:473 JLINK_ReadReg(R4)  returns 0x00000000 (0000ms, 0230ms total)
T39F28 002:473 JLINK_ReadReg(R5)  returns 0x20004B58 (0000ms, 0230ms total)
T39F28 002:473 JLINK_ReadReg(R6)  returns 0x00000000 (0000ms, 0230ms total)
T39F28 002:473 JLINK_ReadReg(R7)  returns 0x00000000 (0000ms, 0230ms total)
T39F28 002:473 JLINK_ReadReg(R8)  returns 0x00000000 (0000ms, 0230ms total)
T39F28 002:473 JLINK_ReadReg(R9)  returns 0x00000000 (0000ms, 0230ms total)
T39F28 002:473 JLINK_ReadReg(R10)  returns 0x0800C714 (0000ms, 0230ms total)
T39F28 002:473 JLINK_ReadReg(R11)  returns 0x00000000 (0000ms, 0230ms total)
T39F28 002:473 JLINK_ReadReg(R12)  returns 0x20004B98 (0000ms, 0230ms total)
T39F28 002:473 JLINK_ReadReg(R13 (SP))  returns 0x200060B8 (0000ms, 0230ms total)
T39F28 002:473 JLINK_ReadReg(R14)  returns 0x0800027B (0000ms, 0230ms total)
T39F28 002:473 JLINK_ReadReg(R15 (PC))  returns 0x08008BBC (0000ms, 0230ms total)
T39F28 002:473 JLINK_ReadReg(XPSR)  returns 0x21000000 (0000ms, 0230ms total)
T39F28 002:473 JLINK_ReadReg(MSP)  returns 0x200060B8 (0000ms, 0230ms total)
T39F28 002:473 JLINK_ReadReg(PSP)  returns 0x00000000 (0000ms, 0230ms total)
T39F28 002:473 JLINK_ReadReg(CFBP)  returns 0x04000000 (0000ms, 0230ms total)
T39F28 002:473 JLINK_ReadReg(FPSCR)  returns 0x03000000 (0004ms, 0234ms total)
T39F28 002:477 JLINK_ReadReg(FPS0)  returns 0x00000000 (0000ms, 0234ms total)
T39F28 002:477 JLINK_ReadReg(FPS1)  returns 0x00000000 (0001ms, 0235ms total)
T39F28 002:478 JLINK_ReadReg(FPS2)  returns 0x00000000 (0000ms, 0235ms total)
T39F28 002:478 JLINK_ReadReg(FPS3)  returns 0x00000000 (0000ms, 0235ms total)
T39F28 002:478 JLINK_ReadReg(FPS4)  returns 0x00000000 (0000ms, 0235ms total)
T39F28 002:478 JLINK_ReadReg(FPS5)  returns 0x00000000 (0000ms, 0235ms total)
T39F28 002:478 JLINK_ReadReg(FPS6)  returns 0x00000000 (0000ms, 0235ms total)
T39F28 002:478 JLINK_ReadReg(FPS7)  returns 0x00000000 (0000ms, 0235ms total)
T39F28 002:478 JLINK_ReadReg(FPS8)  returns 0x00000000 (0000ms, 0235ms total)
T39F28 002:478 JLINK_ReadReg(FPS9)  returns 0x00000000 (0000ms, 0235ms total)
T39F28 002:478 JLINK_ReadReg(FPS10)  returns 0x00000000 (0000ms, 0235ms total)
T39F28 002:478 JLINK_ReadReg(FPS11)  returns 0x00000000 (0000ms, 0235ms total)
T39F28 002:478 JLINK_ReadReg(FPS12)  returns 0x00000000 (0000ms, 0235ms total)
T39F28 002:478 JLINK_ReadReg(FPS13)  returns 0x00000000 (0000ms, 0235ms total)
T39F28 002:478 JLINK_ReadReg(FPS14)  returns 0x00000000 (0000ms, 0235ms total)
T39F28 002:478 JLINK_ReadReg(FPS15)  returns 0x00000000 (0000ms, 0235ms total)
T39F28 002:478 JLINK_ReadReg(FPS16)  returns 0x00000000 (0000ms, 0235ms total)
T39F28 002:478 JLINK_ReadReg(FPS17)  returns 0x00000000 (0000ms, 0235ms total)
T39F28 002:478 JLINK_ReadReg(FPS18)  returns 0x00000000 (0000ms, 0235ms total)
T39F28 002:478 JLINK_ReadReg(FPS19)  returns 0x00000000 (0000ms, 0235ms total)
T39F28 002:478 JLINK_ReadReg(FPS20)  returns 0x00000000 (0000ms, 0235ms total)
T39F28 002:478 JLINK_ReadReg(FPS21)  returns 0x00000000 (0000ms, 0235ms total)
T39F28 002:478 JLINK_ReadReg(FPS22)  returns 0x00000000 (0000ms, 0235ms total)
T39F28 002:478 JLINK_ReadReg(FPS23)  returns 0x00000000 (0000ms, 0235ms total)
T39F28 002:478 JLINK_ReadReg(FPS24)  returns 0x00000000 (0000ms, 0235ms total)
T39F28 002:478 JLINK_ReadReg(FPS25)  returns 0x00000000 (0000ms, 0235ms total)
T39F28 002:478 JLINK_ReadReg(FPS26)  returns 0x00000000 (0000ms, 0235ms total)
T39F28 002:478 JLINK_ReadReg(FPS27)  returns 0x00000000 (0000ms, 0235ms total)
T39F28 002:478 JLINK_ReadReg(FPS28)  returns 0x00000000 (0000ms, 0235ms total)
T39F28 002:478 JLINK_ReadReg(FPS29)  returns 0x00000000 (0000ms, 0235ms total)
T39F28 002:478 JLINK_ReadReg(FPS30)  returns 0x00000000 (0000ms, 0235ms total)
T39F28 002:478 JLINK_ReadReg(FPS31)  returns 0x00000000 (0000ms, 0235ms total)
T1B064 002:480 JLINK_ReadMemU32(0xE0001004, 0x0001 Items, ...) -- CPU_ReadMem(4 bytes @ 0xE0001004) - Data: B1 3A 00 00  returns 0x01 (0000ms, 0235ms total)
T1B064 002:481 JLINK_ReadMem (0x200000B0, 0x0004 Bytes, ...) -- CPU_ReadMem(64 bytes @ 0x20000080) -- Updating C cache (64 bytes @ 0x20000080) -- Read from C cache (4 bytes @ 0x200000B0) - Data: 00 00 00 00  returns 0x00 (0000ms, 0235ms total)
T1B064 002:482 JLINK_ReadMem (0x200000B8, 0x0004 Bytes, ...) -- Read from C cache (4 bytes @ 0x200000B8) - Data: 00 00 00 00  returns 0x00 (0000ms, 0235ms total)
T1B064 002:482 JLINK_ReadMem (0x200000BC, 0x0004 Bytes, ...) -- Read from C cache (4 bytes @ 0x200000BC) - Data: 00 00 00 00  returns 0x00 (0000ms, 0235ms total)
T1B064 002:483 JLINK_ReadMem (0x200000B4, 0x0004 Bytes, ...) -- Read from C cache (4 bytes @ 0x200000B4) - Data: 00 00 00 00  returns 0x00 (0000ms, 0235ms total)
T1B064 002:483 JLINK_ReadMem (0x40021C00, 0x0014 Bytes, ...) -- CPU_ReadMem(20 bytes @ 0x40021C00) - Data: 00 00 00 00 00 00 00 00 00 00 00 00 00 00 00 00 ...  returns 0x00 (0000ms, 0235ms total)
T1B064 002:483 JLINK_ReadMem (0x40021C14, 0x0004 Bytes, ...) -- CPU_ReadMem(4 bytes @ 0x40021C14) - Data: 00 00 00 00  returns 0x00 (0000ms, 0235ms total)
T1B064 002:483 JLINK_ReadMem (0x40021C1C, 0x0008 Bytes, ...) -- CPU_ReadMem(8 bytes @ 0x40021C1C) - Data: 00 00 00 00 00 00 00 00  returns 0x00 (0001ms, 0236ms total)
T1B064 002:484 JLINK_ReadMem (0x40021C24, 0x0004 Bytes, ...) -- CPU_ReadMem(4 bytes @ 0x40021C24) - Data: 00 00 00 00  returns 0x00 (0000ms, 0236ms total)
T1B064 002:485 JLINK_ReadMem (0x08008BBC, 0x003C Bytes, ...) -- CPU_ReadMem(128 bytes @ 0x08008B80) -- Updating C cache (128 bytes @ 0x08008B80) -- Read from C cache (60 bytes @ 0x08008BBC) - Data: F9 F7 50 FA FC F7 E8 F8 FB F7 76 FB FB F7 04 FB ...  returns 0x00 (0001ms, 0237ms total)
T1B064 002:488 JLINK_ReadMem (0x08008BF8, 0x0008 Bytes, ...) -- Read from C cache (8 bytes @ 0x08008BF8) - Data: FB F7 8E FF FB F7 66 FF  returns 0x00 (0000ms, 0237ms total)
T1B064 002:488 JLINK_ReadMem (0x08008C00, 0x0034 Bytes, ...) -- CPU_ReadMem(64 bytes @ 0x08008C00) -- Updating C cache (64 bytes @ 0x08008C00) -- Read from C cache (52 bytes @ 0x08008C00) - Data: FB F7 A4 FD FB F7 0A FD 01 22 04 21 12 48 F9 F7 ...  returns 0x00 (0000ms, 0237ms total)
T1B064 002:490 JLINK_ReadMem (0x08008C34, 0x003C Bytes, ...) -- CPU_ReadMem(64 bytes @ 0x08008C40) -- Updating C cache (64 bytes @ 0x08008C40) -- Read from C cache (60 bytes @ 0x08008C34) - Data: 09 48 F9 F7 FF F9 00 21 08 48 FA F7 AB FF 00 F0 ...  returns 0x00 (0001ms, 0238ms total)
T39F28 004:355 JLINK_Go() -- CPU_ReadMem(4 bytes @ 0xE0001000) -- CPU_WriteMem(4 bytes @ 0xE0002008) (0002ms, 0240ms total)
T39F28 004:457 JLINK_IsHalted()  returns FALSE (0001ms, 0241ms total)
T39F28 004:558 JLINK_IsHalted()  returns FALSE (0000ms, 0240ms total)
T39F28 004:659 JLINK_IsHalted()  returns FALSE (0000ms, 0240ms total)
T39F28 004:760 JLINK_IsHalted()  returns FALSE (0001ms, 0241ms total)
T39F28 004:862 JLINK_IsHalted()  returns FALSE (0000ms, 0240ms total)
T39F28 004:963 JLINK_ReadMemU32(0xE0001004, 0x0001 Items, ...) -- CPU is running -- CPU_ReadMem(4 bytes @ 0xE0001004) - Data: 5B F3 7E 06  returns 0x01 (0000ms, 0240ms total)
T1B064 004:965 JLINK_ReadMem (0x200000B0, 0x0004 Bytes, ...) -- CPU is running -- CPU_ReadMem(4 bytes @ 0x200000B0) - Data: 00 00 00 00  returns 0x00 (0000ms, 0240ms total)
T1B064 004:965 JLINK_ReadMem (0x200000B8, 0x0004 Bytes, ...) -- CPU is running -- CPU_ReadMem(4 bytes @ 0x200000B8) - Data: 00 00 00 00  returns 0x00 (0000ms, 0240ms total)
T1B064 004:966 JLINK_ReadMem (0x200000B0, 0x0004 Bytes, ...) -- CPU is running -- CPU_ReadMem(4 bytes @ 0x200000B0) - Data: 00 00 00 00  returns 0x00 (0001ms, 0241ms total)
T1B064 004:967 JLINK_ReadMem (0x200000BC, 0x0004 Bytes, ...) -- CPU is running -- CPU_ReadMem(4 bytes @ 0x200000BC) - Data: 00 00 00 00  returns 0x00 (0000ms, 0241ms total)
T1B064 004:967 JLINK_ReadMem (0x200000B4, 0x0004 Bytes, ...) -- CPU is running -- CPU_ReadMem(4 bytes @ 0x200000B4) - Data: 00 00 00 00  returns 0x00 (0000ms, 0241ms total)
T1B064 004:967 JLINK_ReadMem (0x40021C00, 0x0014 Bytes, ...) -- CPU is running -- CPU_ReadMem(20 bytes @ 0x40021C00) - Data: 50 25 A0 02 00 00 00 00 00 00 00 00 00 00 00 00 ...  returns 0x00 (0001ms, 0242ms total)
T1B064 004:968 JLINK_ReadMem (0x40021C14, 0x0004 Bytes, ...) -- CPU is running -- CPU_ReadMem(4 bytes @ 0x40021C14) - Data: 3C 00 00 00  returns 0x00 (0000ms, 0242ms total)
T1B064 004:968 JLINK_ReadMem (0x40021C1C, 0x0008 Bytes, ...) -- CPU is running -- CPU_ReadMem(8 bytes @ 0x40021C1C) - Data: 00 00 00 00 00 00 00 09  returns 0x00 (0000ms, 0242ms total)
T1B064 004:968 JLINK_ReadMem (0x40021C24, 0x0004 Bytes, ...) -- CPU is running -- CPU_ReadMem(4 bytes @ 0x40021C24) - Data: 00 22 02 00  returns 0x00 (0001ms, 0243ms total)
T39F28 004:986 JLINK_IsHalted()  returns FALSE (0000ms, 0243ms total)
T39F28 005:087 JLINK_IsHalted()  returns FALSE (0000ms, 0243ms total)
T39F28 005:188 JLINK_IsHalted()  returns FALSE (0000ms, 0243ms total)
T39F28 005:289 JLINK_IsHalted()  returns FALSE (0000ms, 0243ms total)
T39F28 005:389 JLINK_IsHalted()  returns FALSE (0000ms, 0243ms total)
T39F28 005:491 JLINK_ReadMemU32(0xE0001004, 0x0001 Items, ...) -- CPU is running - Data: 5B F3 7E 06  returns 0x01 (0000ms, 0243ms total)
T1B064 005:492 JLINK_ReadMem (0x200000B0, 0x0004 Bytes, ...) -- CPU is running -- CPU_ReadMem(4 bytes @ 0x200000B0) - Data: 00 00 00 00  returns 0x00 (0000ms, 0243ms total)
T1B064 005:492 JLINK_ReadMem (0x200000B8, 0x0004 Bytes, ...) -- CPU is running -- CPU_ReadMem(4 bytes @ 0x200000B8) - Data: 00 00 00 00  returns 0x00 (0001ms, 0244ms total)
T1B064 005:494 JLINK_ReadMem (0x200000B0, 0x0004 Bytes, ...) -- CPU is running -- CPU_ReadMem(4 bytes @ 0x200000B0) - Data: 00 00 00 00  returns 0x00 (0000ms, 0244ms total)
T1B064 005:494 JLINK_ReadMem (0x200000BC, 0x0004 Bytes, ...) -- CPU is running -- CPU_ReadMem(4 bytes @ 0x200000BC) - Data: 00 00 00 00  returns 0x00 (0000ms, 0244ms total)
T1B064 005:494 JLINK_ReadMem (0x200000B4, 0x0004 Bytes, ...) -- CPU is running -- CPU_ReadMem(4 bytes @ 0x200000B4) - Data: 00 00 00 00  returns 0x00 (0001ms, 0245ms total)
T1B064 005:495 JLINK_ReadMem (0x40021C00, 0x0014 Bytes, ...) -- CPU is running -- CPU_ReadMem(20 bytes @ 0x40021C00) - Data: 50 25 A0 02 00 00 00 00 00 00 00 00 00 00 00 00 ...  returns 0x00 (0000ms, 0245ms total)
T1B064 005:495 JLINK_ReadMem (0x40021C14, 0x0004 Bytes, ...) -- CPU is running -- CPU_ReadMem(4 bytes @ 0x40021C14) - Data: 3C 00 00 00  returns 0x00 (0001ms, 0246ms total)
T1B064 005:496 JLINK_ReadMem (0x40021C1C, 0x0008 Bytes, ...) -- CPU is running -- CPU_ReadMem(8 bytes @ 0x40021C1C) - Data: 00 00 00 00 00 00 00 09  returns 0x00 (0000ms, 0246ms total)
T1B064 005:496 JLINK_ReadMem (0x40021C24, 0x0004 Bytes, ...) -- CPU is running -- CPU_ReadMem(4 bytes @ 0x40021C24) - Data: 00 22 02 00  returns 0x00 (0001ms, 0247ms total)
T39F28 005:497 JLINK_IsHalted()  returns FALSE (0000ms, 0247ms total)
T39F28 005:598 JLINK_IsHalted()  returns FALSE (0000ms, 0247ms total)
T39F28 005:699 JLINK_IsHalted()  returns FALSE (0000ms, 0247ms total)
T39F28 005:800 JLINK_IsHalted()  returns FALSE (0000ms, 0247ms total)
T39F28 005:901 JLINK_IsHalted()  returns FALSE (0000ms, 0247ms total)
T39F28 006:002 JLINK_ReadMemU32(0xE0001004, 0x0001 Items, ...) -- CPU is running - Data: 5B F3 7E 06  returns 0x01 (0000ms, 0247ms total)
